 * g:\23_hathakon_2022\esim_workshpace2024\counter_jk_3nov\counter_jk_3nov.cir
 Transient Analysis  Fri Nov 08 10:29:59  2024
--------------------------------------------------------------------------------
Index   time            a5#branch_1_0   a6#branch_1_0   a7#branch_1_0   
--------------------------------------------------------------------------------
0	0.000000e+00	0.000000e+00	-5.00000e-03	0.000000e+00	
1	1.000000e-05	0.000000e+00	-5.00000e-03	0.000000e+00	
2	2.000000e-05	0.000000e+00	-5.00000e-03	0.000000e+00	
3	4.000000e-05	0.000000e+00	-5.00000e-03	0.000000e+00	
4	8.000000e-05	0.000000e+00	-5.00000e-03	0.000000e+00	
5	1.600000e-04	0.000000e+00	-5.00000e-03	0.000000e+00	
6	3.200000e-04	0.000000e+00	-5.00000e-03	0.000000e+00	
7	6.400000e-04	0.000000e+00	-5.00000e-03	0.000000e+00	
8	6.400030e-04	0.000000e+00	-5.00000e-03	0.000000e+00	
9	6.400031e-04	-5.00000e-04	-4.50000e-03	0.000000e+00	
10	6.400033e-04	-1.50000e-03	-3.50000e-03	0.000000e+00	
11	6.400037e-04	-3.50000e-03	-1.50000e-03	0.000000e+00	
12	6.400040e-04	-5.00000e-03	0.000000e+00	0.000000e+00	
13	6.400041e-04	-5.00000e-03	0.000000e+00	0.000000e+00	
14	6.400042e-04	-5.00000e-03	0.000000e+00	0.000000e+00	
15	6.400046e-04	-5.00000e-03	0.000000e+00	0.000000e+00	
16	6.400050e-04	-5.00000e-03	0.000000e+00	0.000000e+00	
17	6.400051e-04	-5.00000e-03	0.000000e+00	0.000000e+00	
18	6.400052e-04	-5.00000e-03	0.000000e+00	0.000000e+00	
19	6.400054e-04	-5.00000e-03	0.000000e+00	0.000000e+00	
20	6.400060e-04	-5.00000e-03	0.000000e+00	0.000000e+00	
21	6.400070e-04	-5.00000e-03	0.000000e+00	0.000000e+00	
22	6.400090e-04	-5.00000e-03	0.000000e+00	0.000000e+00	
23	6.400131e-04	-5.00000e-03	0.000000e+00	0.000000e+00	
24	6.400213e-04	-5.00000e-03	0.000000e+00	0.000000e+00	
25	6.400377e-04	-5.00000e-03	0.000000e+00	0.000000e+00	
26	6.400705e-04	-5.00000e-03	0.000000e+00	0.000000e+00	
27	6.401360e-04	-5.00000e-03	0.000000e+00	0.000000e+00	
28	6.402671e-04	-5.00000e-03	0.000000e+00	0.000000e+00	
29	6.405292e-04	-5.00000e-03	0.000000e+00	0.000000e+00	
30	6.410535e-04	-5.00000e-03	0.000000e+00	0.000000e+00	
31	6.421021e-04	-5.00000e-03	0.000000e+00	0.000000e+00	
32	6.441992e-04	-5.00000e-03	0.000000e+00	0.000000e+00	
33	6.483935e-04	-5.00000e-03	0.000000e+00	0.000000e+00	
34	6.567822e-04	-5.00000e-03	0.000000e+00	0.000000e+00	
35	6.735594e-04	-5.00000e-03	0.000000e+00	0.000000e+00	
36	7.071138e-04	-5.00000e-03	0.000000e+00	0.000000e+00	
37	7.742227e-04	-5.00000e-03	0.000000e+00	0.000000e+00	
38	9.084404e-04	-5.00000e-03	0.000000e+00	0.000000e+00	
39	1.000000e-03	-5.00000e-03	0.000000e+00	0.000000e+00	
40	1.026844e-03	-5.00000e-03	0.000000e+00	0.000000e+00	
41	1.080531e-03	-5.00000e-03	0.000000e+00	0.000000e+00	
42	1.187905e-03	-5.00000e-03	0.000000e+00	0.000000e+00	
43	1.402653e-03	-5.00000e-03	0.000000e+00	0.000000e+00	
44	1.832150e-03	-5.00000e-03	0.000000e+00	0.000000e+00	
45	2.691143e-03	-5.00000e-03	0.000000e+00	0.000000e+00	
46	3.691143e-03	-5.00000e-03	0.000000e+00	0.000000e+00	
47	4.691143e-03	-5.00000e-03	0.000000e+00	0.000000e+00	
48	5.691143e-03	-5.00000e-03	0.000000e+00	0.000000e+00	
49	6.691143e-03	-5.00000e-03	0.000000e+00	0.000000e+00	
50	7.691143e-03	-5.00000e-03	0.000000e+00	0.000000e+00	
51	8.691143e-03	-5.00000e-03	0.000000e+00	0.000000e+00	
52	9.691143e-03	-5.00000e-03	0.000000e+00	0.000000e+00	
53	1.069114e-02	-5.00000e-03	0.000000e+00	0.000000e+00	
54	1.169114e-02	-5.00000e-03	0.000000e+00	0.000000e+00	

Index   time            a5#branch_1_0   a6#branch_1_0   a7#branch_1_0   
--------------------------------------------------------------------------------
55	1.269114e-02	-5.00000e-03	0.000000e+00	0.000000e+00	
56	1.369114e-02	-5.00000e-03	0.000000e+00	0.000000e+00	
57	1.469114e-02	-5.00000e-03	0.000000e+00	0.000000e+00	
58	1.569114e-02	-5.00000e-03	0.000000e+00	0.000000e+00	
59	1.669114e-02	-5.00000e-03	0.000000e+00	0.000000e+00	
60	1.769114e-02	-5.00000e-03	0.000000e+00	0.000000e+00	
61	1.869114e-02	-5.00000e-03	0.000000e+00	0.000000e+00	
62	1.969114e-02	-5.00000e-03	0.000000e+00	0.000000e+00	
63	2.069114e-02	-5.00000e-03	0.000000e+00	0.000000e+00	
64	2.100000e-02	-5.00000e-03	0.000000e+00	0.000000e+00	
65	2.110000e-02	-5.00000e-03	0.000000e+00	0.000000e+00	
66	2.130000e-02	-5.00000e-03	0.000000e+00	0.000000e+00	
67	2.170000e-02	-5.00000e-03	0.000000e+00	0.000000e+00	
68	2.200000e-02	-5.00000e-03	0.000000e+00	0.000000e+00	
69	2.208000e-02	-5.00000e-03	0.000000e+00	0.000000e+00	
70	2.224000e-02	-5.00000e-03	0.000000e+00	0.000000e+00	
71	2.256000e-02	-5.00000e-03	0.000000e+00	0.000000e+00	
72	2.320000e-02	-5.00000e-03	0.000000e+00	0.000000e+00	
73	2.420000e-02	-5.00000e-03	0.000000e+00	0.000000e+00	
74	2.520000e-02	-5.00000e-03	0.000000e+00	0.000000e+00	
75	2.620000e-02	-5.00000e-03	0.000000e+00	0.000000e+00	
76	2.720000e-02	-5.00000e-03	0.000000e+00	0.000000e+00	
77	2.820000e-02	-5.00000e-03	0.000000e+00	0.000000e+00	
78	2.920000e-02	-5.00000e-03	0.000000e+00	0.000000e+00	
79	3.020000e-02	-5.00000e-03	0.000000e+00	0.000000e+00	
80	3.120000e-02	-5.00000e-03	0.000000e+00	0.000000e+00	
81	3.220000e-02	-5.00000e-03	0.000000e+00	0.000000e+00	
82	3.320000e-02	-5.00000e-03	0.000000e+00	0.000000e+00	
83	3.420000e-02	-5.00000e-03	0.000000e+00	0.000000e+00	
84	3.520000e-02	-5.00000e-03	0.000000e+00	0.000000e+00	
85	3.620000e-02	-5.00000e-03	0.000000e+00	0.000000e+00	
86	3.720000e-02	-5.00000e-03	0.000000e+00	0.000000e+00	
87	3.820000e-02	-5.00000e-03	0.000000e+00	0.000000e+00	
88	3.920000e-02	-5.00000e-03	0.000000e+00	0.000000e+00	
89	4.000000e-02	-5.00000e-03	0.000000e+00	0.000000e+00	
90	4.010000e-02	-5.00000e-03	0.000000e+00	0.000000e+00	
91	4.030000e-02	-5.00000e-03	0.000000e+00	0.000000e+00	
92	4.070000e-02	-5.00000e-03	0.000000e+00	0.000000e+00	
93	4.070000e-02	-5.00000e-03	0.000000e+00	0.000000e+00	
94	4.070000e-02	-4.50000e-03	-5.00000e-04	0.000000e+00	
95	4.070000e-02	-3.50000e-03	-1.50000e-03	0.000000e+00	
96	4.070000e-02	-1.50000e-03	-3.50000e-03	0.000000e+00	
97	4.070000e-02	-2.63179e-12	-5.00000e-03	0.000000e+00	
98	4.070000e-02	0.000000e+00	-5.00000e-03	0.000000e+00	
99	4.070000e-02	0.000000e+00	-5.00000e-03	0.000000e+00	
100	4.070000e-02	0.000000e+00	-5.00000e-03	0.000000e+00	
101	4.070001e-02	0.000000e+00	-5.00000e-03	0.000000e+00	
102	4.070001e-02	0.000000e+00	-5.00000e-03	-3.20000e-04	
103	4.070001e-02	0.000000e+00	-5.00000e-03	-9.60000e-04	
104	4.070001e-02	0.000000e+00	-5.00000e-03	-2.24000e-03	
105	4.070001e-02	0.000000e+00	-5.00000e-03	-4.80000e-03	
106	4.070001e-02	0.000000e+00	-5.00000e-03	-5.00000e-03	
107	4.070001e-02	0.000000e+00	-5.00000e-03	-5.00000e-03	
108	4.070001e-02	0.000000e+00	-5.00000e-03	-5.00000e-03	
109	4.070001e-02	0.000000e+00	-5.00000e-03	-5.00000e-03	
110	4.070001e-02	0.000000e+00	-5.00000e-03	-5.00000e-03	
111	4.070001e-02	0.000000e+00	-5.00000e-03	-5.00000e-03	
112	4.070001e-02	0.000000e+00	-5.00000e-03	-5.00000e-03	

Index   time            a5#branch_1_0   a6#branch_1_0   a7#branch_1_0   
--------------------------------------------------------------------------------
113	4.070001e-02	0.000000e+00	-5.00000e-03	-5.00000e-03	
114	4.070001e-02	0.000000e+00	-5.00000e-03	-5.00000e-03	
115	4.070001e-02	0.000000e+00	-5.00000e-03	-5.00000e-03	
116	4.070001e-02	0.000000e+00	-5.00000e-03	-5.00000e-03	
117	4.070002e-02	0.000000e+00	-5.00000e-03	-5.00000e-03	
118	4.070002e-02	0.000000e+00	-5.00000e-03	-5.00000e-03	
119	4.070004e-02	0.000000e+00	-5.00000e-03	-5.00000e-03	
120	4.070007e-02	0.000000e+00	-5.00000e-03	-5.00000e-03	
121	4.070014e-02	0.000000e+00	-5.00000e-03	-5.00000e-03	
122	4.070027e-02	0.000000e+00	-5.00000e-03	-5.00000e-03	
123	4.070053e-02	0.000000e+00	-5.00000e-03	-5.00000e-03	
124	4.070106e-02	0.000000e+00	-5.00000e-03	-5.00000e-03	
125	4.070210e-02	0.000000e+00	-5.00000e-03	-5.00000e-03	
126	4.070420e-02	0.000000e+00	-5.00000e-03	-5.00000e-03	
127	4.070840e-02	0.000000e+00	-5.00000e-03	-5.00000e-03	
128	4.071678e-02	0.000000e+00	-5.00000e-03	-5.00000e-03	
129	4.073356e-02	0.000000e+00	-5.00000e-03	-5.00000e-03	
130	4.076712e-02	0.000000e+00	-5.00000e-03	-5.00000e-03	
131	4.083422e-02	0.000000e+00	-5.00000e-03	-5.00000e-03	
132	4.096844e-02	0.000000e+00	-5.00000e-03	-5.00000e-03	
133	4.100000e-02	0.000000e+00	-5.00000e-03	-5.00000e-03	
134	4.102684e-02	0.000000e+00	-5.00000e-03	-5.00000e-03	
135	4.108053e-02	0.000000e+00	-5.00000e-03	-5.00000e-03	
136	4.118790e-02	0.000000e+00	-5.00000e-03	-5.00000e-03	
137	4.140265e-02	0.000000e+00	-5.00000e-03	-5.00000e-03	
138	4.183215e-02	0.000000e+00	-5.00000e-03	-5.00000e-03	
139	4.269114e-02	0.000000e+00	-5.00000e-03	-5.00000e-03	
140	4.369114e-02	0.000000e+00	-5.00000e-03	-5.00000e-03	
141	4.469114e-02	0.000000e+00	-5.00000e-03	-5.00000e-03	
142	4.569114e-02	0.000000e+00	-5.00000e-03	-5.00000e-03	
143	4.669114e-02	0.000000e+00	-5.00000e-03	-5.00000e-03	
144	4.769114e-02	0.000000e+00	-5.00000e-03	-5.00000e-03	
145	4.869114e-02	0.000000e+00	-5.00000e-03	-5.00000e-03	
146	4.969114e-02	0.000000e+00	-5.00000e-03	-5.00000e-03	
147	5.069114e-02	0.000000e+00	-5.00000e-03	-5.00000e-03	
148	5.169114e-02	0.000000e+00	-5.00000e-03	-5.00000e-03	
149	5.269114e-02	0.000000e+00	-5.00000e-03	-5.00000e-03	
150	5.369114e-02	0.000000e+00	-5.00000e-03	-5.00000e-03	
151	5.469114e-02	0.000000e+00	-5.00000e-03	-5.00000e-03	
152	5.569114e-02	0.000000e+00	-5.00000e-03	-5.00000e-03	
153	5.669114e-02	0.000000e+00	-5.00000e-03	-5.00000e-03	
154	5.769114e-02	0.000000e+00	-5.00000e-03	-5.00000e-03	
155	5.869114e-02	0.000000e+00	-5.00000e-03	-5.00000e-03	
156	5.969114e-02	0.000000e+00	-5.00000e-03	-5.00000e-03	
157	6.069114e-02	0.000000e+00	-5.00000e-03	-5.00000e-03	
158	6.100000e-02	0.000000e+00	-5.00000e-03	-5.00000e-03	
159	6.110000e-02	0.000000e+00	-5.00000e-03	-5.00000e-03	
160	6.130000e-02	0.000000e+00	-5.00000e-03	-5.00000e-03	
161	6.170000e-02	0.000000e+00	-5.00000e-03	-5.00000e-03	
162	6.200000e-02	0.000000e+00	-5.00000e-03	-5.00000e-03	
163	6.208000e-02	0.000000e+00	-5.00000e-03	-5.00000e-03	
164	6.224000e-02	0.000000e+00	-5.00000e-03	-5.00000e-03	
165	6.256000e-02	0.000000e+00	-5.00000e-03	-5.00000e-03	
166	6.320000e-02	0.000000e+00	-5.00000e-03	-5.00000e-03	
167	6.420000e-02	0.000000e+00	-5.00000e-03	-5.00000e-03	
168	6.520000e-02	0.000000e+00	-5.00000e-03	-5.00000e-03	
169	6.620000e-02	0.000000e+00	-5.00000e-03	-5.00000e-03	
170	6.720000e-02	0.000000e+00	-5.00000e-03	-5.00000e-03	

Index   time            a5#branch_1_0   a6#branch_1_0   a7#branch_1_0   
--------------------------------------------------------------------------------
171	6.820000e-02	0.000000e+00	-5.00000e-03	-5.00000e-03	
172	6.920000e-02	0.000000e+00	-5.00000e-03	-5.00000e-03	
173	7.020000e-02	0.000000e+00	-5.00000e-03	-5.00000e-03	
174	7.120000e-02	0.000000e+00	-5.00000e-03	-5.00000e-03	
175	7.220000e-02	0.000000e+00	-5.00000e-03	-5.00000e-03	
176	7.320000e-02	0.000000e+00	-5.00000e-03	-5.00000e-03	
177	7.420000e-02	0.000000e+00	-5.00000e-03	-5.00000e-03	
178	7.520000e-02	0.000000e+00	-5.00000e-03	-5.00000e-03	
179	7.620000e-02	0.000000e+00	-5.00000e-03	-5.00000e-03	
180	7.720000e-02	0.000000e+00	-5.00000e-03	-5.00000e-03	
181	7.820000e-02	0.000000e+00	-5.00000e-03	-5.00000e-03	
182	7.920000e-02	0.000000e+00	-5.00000e-03	-5.00000e-03	
183	8.000000e-02	0.000000e+00	-5.00000e-03	-5.00000e-03	
184	8.010000e-02	0.000000e+00	-5.00000e-03	-5.00000e-03	
185	8.030000e-02	0.000000e+00	-5.00000e-03	-5.00000e-03	
186	8.070000e-02	0.000000e+00	-5.00000e-03	-5.00000e-03	
187	8.070000e-02	0.000000e+00	-5.00000e-03	-5.00000e-03	
188	8.070000e-02	-5.00000e-04	-4.50000e-03	-5.00000e-03	
189	8.070000e-02	-1.50000e-03	-3.50000e-03	-5.00000e-03	
190	8.070000e-02	-3.50000e-03	-1.50000e-03	-5.00000e-03	
191	8.070000e-02	-5.00000e-03	-2.63179e-12	-5.00000e-03	
192	8.070000e-02	-5.00000e-03	0.000000e+00	-5.00000e-03	
193	8.070000e-02	-5.00000e-03	0.000000e+00	-5.00000e-03	
194	8.070000e-02	-5.00000e-03	0.000000e+00	-5.00000e-03	
195	8.070001e-02	-5.00000e-03	0.000000e+00	-5.00000e-03	
196	8.070001e-02	-5.00000e-03	0.000000e+00	-5.00000e-03	
197	8.070001e-02	-5.00000e-03	0.000000e+00	-5.00000e-03	
198	8.070001e-02	-5.00000e-03	0.000000e+00	-5.00000e-03	
199	8.070001e-02	-5.00000e-03	0.000000e+00	-5.00000e-03	
200	8.070001e-02	-5.00000e-03	0.000000e+00	-5.00000e-03	
201	8.070001e-02	-5.00000e-03	0.000000e+00	-5.00000e-03	
202	8.070001e-02	-5.00000e-03	0.000000e+00	-5.00000e-03	
203	8.070002e-02	-5.00000e-03	0.000000e+00	-5.00000e-03	
204	8.070004e-02	-5.00000e-03	0.000000e+00	-5.00000e-03	
205	8.070007e-02	-5.00000e-03	0.000000e+00	-5.00000e-03	
206	8.070014e-02	-5.00000e-03	0.000000e+00	-5.00000e-03	
207	8.070027e-02	-5.00000e-03	0.000000e+00	-5.00000e-03	
208	8.070053e-02	-5.00000e-03	0.000000e+00	-5.00000e-03	
209	8.070105e-02	-5.00000e-03	0.000000e+00	-5.00000e-03	
210	8.070210e-02	-5.00000e-03	0.000000e+00	-5.00000e-03	
211	8.070420e-02	-5.00000e-03	0.000000e+00	-5.00000e-03	
212	8.070839e-02	-5.00000e-03	0.000000e+00	-5.00000e-03	
213	8.071678e-02	-5.00000e-03	0.000000e+00	-5.00000e-03	
214	8.073356e-02	-5.00000e-03	0.000000e+00	-5.00000e-03	
215	8.076711e-02	-5.00000e-03	0.000000e+00	-5.00000e-03	
216	8.083422e-02	-5.00000e-03	0.000000e+00	-5.00000e-03	
217	8.096844e-02	-5.00000e-03	0.000000e+00	-5.00000e-03	
218	8.100000e-02	-5.00000e-03	0.000000e+00	-5.00000e-03	
219	8.102684e-02	-5.00000e-03	0.000000e+00	-5.00000e-03	
220	8.108053e-02	-5.00000e-03	0.000000e+00	-5.00000e-03	
221	8.118790e-02	-5.00000e-03	0.000000e+00	-5.00000e-03	
222	8.140265e-02	-5.00000e-03	0.000000e+00	-5.00000e-03	
223	8.183215e-02	-5.00000e-03	0.000000e+00	-5.00000e-03	
224	8.269114e-02	-5.00000e-03	0.000000e+00	-5.00000e-03	
225	8.369114e-02	-5.00000e-03	0.000000e+00	-5.00000e-03	
226	8.469114e-02	-5.00000e-03	0.000000e+00	-5.00000e-03	
227	8.569114e-02	-5.00000e-03	0.000000e+00	-5.00000e-03	
228	8.669114e-02	-5.00000e-03	0.000000e+00	-5.00000e-03	

Index   time            a5#branch_1_0   a6#branch_1_0   a7#branch_1_0   
--------------------------------------------------------------------------------
229	8.769114e-02	-5.00000e-03	0.000000e+00	-5.00000e-03	
230	8.869114e-02	-5.00000e-03	0.000000e+00	-5.00000e-03	
231	8.969114e-02	-5.00000e-03	0.000000e+00	-5.00000e-03	
232	9.069114e-02	-5.00000e-03	0.000000e+00	-5.00000e-03	
233	9.169114e-02	-5.00000e-03	0.000000e+00	-5.00000e-03	
234	9.269114e-02	-5.00000e-03	0.000000e+00	-5.00000e-03	
235	9.369114e-02	-5.00000e-03	0.000000e+00	-5.00000e-03	
236	9.469114e-02	-5.00000e-03	0.000000e+00	-5.00000e-03	
237	9.569114e-02	-5.00000e-03	0.000000e+00	-5.00000e-03	
238	9.669114e-02	-5.00000e-03	0.000000e+00	-5.00000e-03	
239	9.769114e-02	-5.00000e-03	0.000000e+00	-5.00000e-03	
240	9.869114e-02	-5.00000e-03	0.000000e+00	-5.00000e-03	
241	9.969114e-02	-5.00000e-03	0.000000e+00	-5.00000e-03	
242	1.006911e-01	-5.00000e-03	0.000000e+00	-5.00000e-03	
243	1.010000e-01	-5.00000e-03	0.000000e+00	-5.00000e-03	
244	1.011000e-01	-5.00000e-03	0.000000e+00	-5.00000e-03	
245	1.013000e-01	-5.00000e-03	0.000000e+00	-5.00000e-03	
246	1.017000e-01	-5.00000e-03	0.000000e+00	-5.00000e-03	
247	1.020000e-01	-5.00000e-03	0.000000e+00	-5.00000e-03	
248	1.020800e-01	-5.00000e-03	0.000000e+00	-5.00000e-03	
249	1.022400e-01	-5.00000e-03	0.000000e+00	-5.00000e-03	
250	1.025600e-01	-5.00000e-03	0.000000e+00	-5.00000e-03	
251	1.032000e-01	-5.00000e-03	0.000000e+00	-5.00000e-03	
252	1.042000e-01	-5.00000e-03	0.000000e+00	-5.00000e-03	
253	1.052000e-01	-5.00000e-03	0.000000e+00	-5.00000e-03	
254	1.062000e-01	-5.00000e-03	0.000000e+00	-5.00000e-03	
255	1.072000e-01	-5.00000e-03	0.000000e+00	-5.00000e-03	
256	1.082000e-01	-5.00000e-03	0.000000e+00	-5.00000e-03	
257	1.092000e-01	-5.00000e-03	0.000000e+00	-5.00000e-03	
258	1.102000e-01	-5.00000e-03	0.000000e+00	-5.00000e-03	
259	1.112000e-01	-5.00000e-03	0.000000e+00	-5.00000e-03	
260	1.122000e-01	-5.00000e-03	0.000000e+00	-5.00000e-03	
261	1.132000e-01	-5.00000e-03	0.000000e+00	-5.00000e-03	
262	1.142000e-01	-5.00000e-03	0.000000e+00	-5.00000e-03	
263	1.152000e-01	-5.00000e-03	0.000000e+00	-5.00000e-03	
264	1.162000e-01	-5.00000e-03	0.000000e+00	-5.00000e-03	
265	1.172000e-01	-5.00000e-03	0.000000e+00	-5.00000e-03	
266	1.182000e-01	-5.00000e-03	0.000000e+00	-5.00000e-03	
267	1.192000e-01	-5.00000e-03	0.000000e+00	-5.00000e-03	
268	1.200000e-01	-5.00000e-03	0.000000e+00	-5.00000e-03	
269	1.201000e-01	-5.00000e-03	0.000000e+00	-5.00000e-03	
270	1.203000e-01	-5.00000e-03	0.000000e+00	-5.00000e-03	
271	1.207000e-01	-5.00000e-03	0.000000e+00	-5.00000e-03	
272	1.207000e-01	-5.00000e-03	0.000000e+00	-5.00000e-03	
273	1.207000e-01	-4.50000e-03	-5.00000e-04	-5.00000e-03	
274	1.207000e-01	-3.50000e-03	-1.50000e-03	-5.00000e-03	
275	1.207000e-01	-1.50000e-03	-3.50000e-03	-5.00000e-03	
276	1.207000e-01	-2.63179e-12	-5.00000e-03	-5.00000e-03	
277	1.207000e-01	0.000000e+00	-5.00000e-03	-5.00000e-03	
278	1.207000e-01	0.000000e+00	-5.00000e-03	-5.00000e-03	
279	1.207000e-01	0.000000e+00	-5.00000e-03	-5.00000e-03	
280	1.207000e-01	0.000000e+00	-5.00000e-03	-5.00000e-03	
281	1.207000e-01	0.000000e+00	-5.00000e-03	-4.68000e-03	
282	1.207000e-01	0.000000e+00	-5.00000e-03	-4.04000e-03	
283	1.207000e-01	0.000000e+00	-5.00000e-03	-2.76000e-03	
284	1.207000e-01	0.000000e+00	-5.00000e-03	-2.00000e-04	
285	1.207000e-01	0.000000e+00	-5.00000e-03	-2.63179e-12	
286	1.207000e-01	0.000000e+00	-5.00000e-03	0.000000e+00	

Index   time            a5#branch_1_0   a6#branch_1_0   a7#branch_1_0   
--------------------------------------------------------------------------------
287	1.207000e-01	0.000000e+00	-5.00000e-03	0.000000e+00	
288	1.207000e-01	0.000000e+00	-5.00000e-03	0.000000e+00	
289	1.207000e-01	0.000000e+00	-5.00000e-03	0.000000e+00	
290	1.207000e-01	0.000000e+00	-5.00000e-03	0.000000e+00	
291	1.207000e-01	0.000000e+00	-5.00000e-03	0.000000e+00	
292	1.207000e-01	0.000000e+00	-5.00000e-03	0.000000e+00	
293	1.207000e-01	0.000000e+00	-5.00000e-03	0.000000e+00	
294	1.207000e-01	0.000000e+00	-5.00000e-03	0.000000e+00	
295	1.207000e-01	0.000000e+00	-5.00000e-03	0.000000e+00	
296	1.207000e-01	0.000000e+00	-5.00000e-03	0.000000e+00	
297	1.207000e-01	0.000000e+00	-5.00000e-03	0.000000e+00	
298	1.207000e-01	0.000000e+00	-5.00000e-03	0.000000e+00	
299	1.207001e-01	0.000000e+00	-5.00000e-03	0.000000e+00	
300	1.207001e-01	0.000000e+00	-5.00000e-03	0.000000e+00	
301	1.207003e-01	0.000000e+00	-5.00000e-03	0.000000e+00	
302	1.207005e-01	0.000000e+00	-5.00000e-03	0.000000e+00	
303	1.207011e-01	0.000000e+00	-5.00000e-03	0.000000e+00	
304	1.207021e-01	0.000000e+00	-5.00000e-03	0.000000e+00	
305	1.207042e-01	0.000000e+00	-5.00000e-03	0.000000e+00	
306	1.207084e-01	0.000000e+00	-5.00000e-03	0.000000e+00	
307	1.207168e-01	0.000000e+00	-5.00000e-03	0.000000e+00	
308	1.207336e-01	0.000000e+00	-5.00000e-03	0.000000e+00	
309	1.207671e-01	0.000000e+00	-5.00000e-03	0.000000e+00	
310	1.208342e-01	0.000000e+00	-5.00000e-03	0.000000e+00	
311	1.209684e-01	0.000000e+00	-5.00000e-03	0.000000e+00	
312	1.210000e-01	0.000000e+00	-5.00000e-03	0.000000e+00	
313	1.210268e-01	0.000000e+00	-5.00000e-03	0.000000e+00	
314	1.210805e-01	0.000000e+00	-5.00000e-03	0.000000e+00	
315	1.211879e-01	0.000000e+00	-5.00000e-03	0.000000e+00	
316	1.214027e-01	0.000000e+00	-5.00000e-03	0.000000e+00	
317	1.218321e-01	0.000000e+00	-5.00000e-03	0.000000e+00	
318	1.226911e-01	0.000000e+00	-5.00000e-03	0.000000e+00	
319	1.236911e-01	0.000000e+00	-5.00000e-03	0.000000e+00	
320	1.246911e-01	0.000000e+00	-5.00000e-03	0.000000e+00	
321	1.256911e-01	0.000000e+00	-5.00000e-03	0.000000e+00	
322	1.266911e-01	0.000000e+00	-5.00000e-03	0.000000e+00	
323	1.276911e-01	0.000000e+00	-5.00000e-03	0.000000e+00	
324	1.286911e-01	0.000000e+00	-5.00000e-03	0.000000e+00	
325	1.296911e-01	0.000000e+00	-5.00000e-03	0.000000e+00	
